                 * /home/kanish/sky130pdk-based-mux/mux/mux.cir
                 Transient Analysis  Sat Oct 22 05:14:04  2022
--------------------------------------------------------------------------------
Index   time            v1#branch       v2#branch       
--------------------------------------------------------------------------------
0	0.000000e+00	0.000000e+00	-7.28743e-12	
1	1.000000e-06	-5.38784e-20	-7.28742e-12	
2	2.000000e-06	-4.13590e-24	-7.28740e-12	
3	4.000000e-06	1.488925e-23	-7.28742e-12	
4	8.000000e-06	-1.53028e-23	-7.28743e-12	
5	1.600000e-05	1.737079e-23	-7.28738e-12	
6	3.200000e-05	-1.69572e-23	-7.28744e-12	
7	6.400000e-05	1.721570e-23	-7.28740e-12	
8	1.000000e-04	-1.73191e-23	-7.28744e-12	
9	1.064000e-04	-2.90902e-10	1.139638e-10	
10	1.192000e-04	-3.94279e-10	-2.47029e-08	
11	1.448000e-04	-3.54922e-10	-1.89740e-05	
12	1.659114e-04	-4.33002e-10	-1.93704e-05	
13	1.862869e-04	-4.00600e-10	-3.51359e-05	
14	2.000000e-04	-4.73287e-10	-5.86115e-05	
15	2.032145e-04	-4.35727e-13	-5.86387e-05	
16	2.096434e-04	4.395649e-13	-5.86384e-05	
17	2.225013e-04	-4.42765e-13	-5.86387e-05	
18	2.482171e-04	4.427648e-13	-5.86387e-05	
19	2.996486e-04	-4.42765e-13	-5.86387e-05	
20	4.025118e-04	4.427651e-13	-5.86387e-05	
21	6.082380e-04	-4.42765e-13	-5.86387e-05	
22	9.082380e-04	4.427651e-13	-5.86387e-05	
23	1.208238e-03	-4.42765e-13	-5.86387e-05	
24	1.508238e-03	4.427652e-13	-5.86387e-05	
25	1.808238e-03	-4.42765e-13	-5.86387e-05	
26	2.108238e-03	4.427652e-13	-5.86387e-05	
27	2.200000e-03	-4.42765e-13	-5.86387e-05	
28	2.210000e-03	4.396847e-10	-4.05842e-05	
29	2.230000e-03	4.020789e-10	-2.04292e-05	
30	2.270000e-03	3.413344e-10	-1.80743e-06	
31	2.300000e-03	3.891090e-10	5.554664e-10	
32	2.304280e-03	-2.00811e-14	-7.22581e-12	
33	2.312841e-03	1.940059e-14	-7.34745e-12	
34	2.329963e-03	-1.94006e-14	-7.22743e-12	
35	2.364205e-03	1.939997e-14	-7.34741e-12	
36	2.432691e-03	-1.93997e-14	-7.22744e-12	
37	2.569663e-03	1.939950e-14	-7.34744e-12	
38	2.843606e-03	-1.93994e-14	-7.22744e-12	
39	3.143606e-03	1.939936e-14	-7.34745e-12	
40	3.443606e-03	-1.93993e-14	-7.22742e-12	
41	3.743606e-03	1.939921e-14	-7.34745e-12	
42	4.043606e-03	-1.93991e-14	-7.22741e-12	
43	4.100000e-03	1.939877e-14	-7.34746e-12	
44	4.107638e-03	-2.93135e-10	8.327621e-11	
45	4.122913e-03	-4.26900e-10	-1.35319e-07	
46	4.153464e-03	-3.24024e-10	-1.89440e-05	
47	4.180258e-03	-4.88082e-10	-2.78510e-05	
48	4.200000e-03	-3.78000e-10	-5.86152e-05	
49	4.202593e-03	-4.93467e-13	-5.86387e-05	
50	4.207778e-03	4.975004e-13	-5.86385e-05	
51	4.218148e-03	-5.00600e-13	-5.86387e-05	
52	4.238889e-03	5.006001e-13	-5.86387e-05	
53	4.280371e-03	-5.00600e-13	-5.86387e-05	
54	4.363334e-03	5.006003e-13	-5.86387e-05	

Index   time            v1#branch       v2#branch       
--------------------------------------------------------------------------------
55	4.529261e-03	-5.00600e-13	-5.86387e-05	
56	4.829261e-03	5.006003e-13	-5.86387e-05	
57	5.129261e-03	-5.00600e-13	-5.86387e-05	
58	5.429261e-03	5.006004e-13	-5.86387e-05	
59	5.729261e-03	-5.00600e-13	-5.86387e-05	
60	6.029261e-03	5.006004e-13	-5.86387e-05	
61	6.200000e-03	-5.00600e-13	-5.86387e-05	
62	6.210000e-03	4.396847e-10	-4.05842e-05	
63	6.230000e-03	4.020789e-10	-2.04292e-05	
64	6.270000e-03	3.413344e-10	-1.80743e-06	
65	6.300000e-03	3.891090e-10	5.554664e-10	
66	6.304280e-03	-2.00811e-14	-7.22584e-12	
67	6.312841e-03	1.940059e-14	-7.34744e-12	
68	6.329963e-03	-1.94006e-14	-7.22743e-12	
69	6.364205e-03	1.939997e-14	-7.34741e-12	
70	6.432691e-03	-1.93997e-14	-7.22744e-12	
71	6.569663e-03	1.939950e-14	-7.34744e-12	
72	6.843606e-03	-1.93994e-14	-7.22744e-12	
73	7.143606e-03	1.939936e-14	-7.34745e-12	
74	7.443606e-03	-1.93993e-14	-7.22742e-12	
75	7.743606e-03	1.939921e-14	-7.34745e-12	
76	8.043606e-03	-1.93991e-14	-7.22741e-12	
77	8.100000e-03	1.939877e-14	-7.34746e-12	
78	8.107638e-03	-2.93135e-10	8.327621e-11	
79	8.122913e-03	-4.26900e-10	-1.35319e-07	
80	8.153464e-03	-3.24024e-10	-1.89440e-05	
81	8.180258e-03	-4.88082e-10	-2.78510e-05	
82	8.200000e-03	-3.78000e-10	-5.86152e-05	
83	8.202593e-03	-4.93467e-13	-5.86387e-05	
84	8.207778e-03	4.975004e-13	-5.86385e-05	
85	8.218148e-03	-5.00600e-13	-5.86387e-05	
86	8.238889e-03	5.006001e-13	-5.86387e-05	
87	8.280371e-03	-5.00600e-13	-5.86387e-05	
88	8.363334e-03	5.006003e-13	-5.86387e-05	
89	8.529261e-03	-5.00600e-13	-5.86387e-05	
90	8.829261e-03	5.006004e-13	-5.86387e-05	
91	9.129261e-03	-5.00600e-13	-5.86387e-05	
92	9.429261e-03	5.006004e-13	-5.86387e-05	
93	9.729261e-03	-5.00600e-13	-5.86387e-05	
94	1.002926e-02	5.006004e-13	-5.86387e-05	
95	1.020000e-02	-5.00600e-13	-5.86387e-05	
96	1.021000e-02	4.396847e-10	-4.05842e-05	
97	1.023000e-02	4.020789e-10	-2.04292e-05	
98	1.027000e-02	3.413344e-10	-1.80743e-06	
99	1.030000e-02	3.891090e-10	5.554664e-10	
100	1.030428e-02	-2.00811e-14	-7.22584e-12	
101	1.031284e-02	1.940059e-14	-7.34744e-12	
102	1.032996e-02	-1.94006e-14	-7.22743e-12	
103	1.036421e-02	1.939997e-14	-7.34741e-12	
104	1.043269e-02	-1.93997e-14	-7.22744e-12	
105	1.056966e-02	1.939950e-14	-7.34744e-12	
106	1.084361e-02	-1.93994e-14	-7.22744e-12	
107	1.114361e-02	1.939936e-14	-7.34745e-12	
108	1.144361e-02	-1.93993e-14	-7.22742e-12	
109	1.174361e-02	1.939921e-14	-7.34745e-12	
110	1.204361e-02	-1.93991e-14	-7.22741e-12	
111	1.210000e-02	1.939877e-14	-7.34746e-12	
112	1.210764e-02	-2.93135e-10	8.327621e-11	

Index   time            v1#branch       v2#branch       
--------------------------------------------------------------------------------
113	1.212291e-02	-4.26900e-10	-1.35319e-07	
114	1.215346e-02	-3.24024e-10	-1.89440e-05	
115	1.218026e-02	-4.88082e-10	-2.78510e-05	
116	1.220000e-02	-3.78000e-10	-5.86152e-05	
117	1.220259e-02	-4.93467e-13	-5.86387e-05	
118	1.220778e-02	4.975004e-13	-5.86385e-05	
119	1.221815e-02	-5.00600e-13	-5.86387e-05	
120	1.223889e-02	5.006001e-13	-5.86387e-05	
121	1.228037e-02	-5.00600e-13	-5.86387e-05	
122	1.236333e-02	5.006003e-13	-5.86387e-05	
123	1.252926e-02	-5.00600e-13	-5.86387e-05	
124	1.282926e-02	5.006004e-13	-5.86387e-05	
125	1.312926e-02	-5.00600e-13	-5.86387e-05	
126	1.342926e-02	5.006004e-13	-5.86387e-05	
127	1.372926e-02	-5.00600e-13	-5.86387e-05	
128	1.402926e-02	5.006004e-13	-5.86387e-05	
129	1.420000e-02	-5.00600e-13	-5.86387e-05	
130	1.421000e-02	4.396847e-10	-4.05842e-05	
131	1.423000e-02	4.020789e-10	-2.04292e-05	
132	1.427000e-02	3.413344e-10	-1.80743e-06	
133	1.430000e-02	3.891090e-10	5.554664e-10	
134	1.430428e-02	-2.00811e-14	-7.22584e-12	
135	1.431284e-02	1.940059e-14	-7.34744e-12	
136	1.432996e-02	-1.94006e-14	-7.22743e-12	
137	1.436421e-02	1.939997e-14	-7.34741e-12	
138	1.443269e-02	-1.93997e-14	-7.22744e-12	
139	1.456966e-02	1.939950e-14	-7.34744e-12	
140	1.484361e-02	-1.93994e-14	-7.22744e-12	
141	1.500000e-02	1.939929e-14	-7.34745e-12	
