                 * /home/kanish/sky130pdk-based-mux/mux/mux.cir
                 Transient Analysis  Sat Oct 22 05:14:04  2022
--------------------------------------------------------------------------------
Index   time                            clk             clkb            
--------------------------------------------------------------------------------
0	0.000000e+00	0.000000e+00	0.000000e+00	1.800000e+00	
1	1.000000e-06	0.000000e+00	0.000000e+00	1.800000e+00	
2	2.000000e-06	0.000000e+00	0.000000e+00	1.800000e+00	
3	4.000000e-06	0.000000e+00	0.000000e+00	1.800000e+00	
4	8.000000e-06	0.000000e+00	0.000000e+00	1.800000e+00	
5	1.600000e-05	0.000000e+00	0.000000e+00	1.800000e+00	
6	3.200000e-05	0.000000e+00	0.000000e+00	1.800000e+00	
7	6.400000e-05	0.000000e+00	0.000000e+00	1.800000e+00	
8	1.000000e-04	0.000000e+00	0.000000e+00	1.800000e+00	
9	1.064000e-04	0.000000e+00	1.152000e-01	1.800001e+00	
10	1.192000e-04	0.000000e+00	3.456000e-01	1.799594e+00	
11	1.448000e-04	0.000000e+00	8.064000e-01	1.116017e-03	
12	1.659114e-04	0.000000e+00	1.186406e+00	-9.94911e-06	
13	1.862869e-04	0.000000e+00	1.553164e+00	7.659691e-06	
14	2.000000e-04	0.000000e+00	1.800000e+00	-6.08739e-06	
15	2.032145e-04	0.000000e+00	1.800000e+00	8.121695e-09	
16	2.096434e-04	0.000000e+00	1.800000e+00	1.026129e-08	
17	2.225013e-04	0.000000e+00	1.800000e+00	8.105723e-09	
18	2.482171e-04	0.000000e+00	1.800000e+00	1.033863e-08	
19	2.996486e-04	0.000000e+00	1.800000e+00	8.105738e-09	
20	4.025118e-04	0.000000e+00	1.800000e+00	1.033863e-08	
21	6.082380e-04	0.000000e+00	1.800000e+00	8.105743e-09	
22	9.082380e-04	0.000000e+00	1.800000e+00	1.033862e-08	
23	1.208238e-03	0.000000e+00	1.800000e+00	8.105745e-09	
24	1.508238e-03	0.000000e+00	1.800000e+00	1.033862e-08	
25	1.808238e-03	0.000000e+00	1.800000e+00	8.105747e-09	
26	2.108238e-03	0.000000e+00	1.800000e+00	1.033862e-08	
27	2.200000e-03	0.000000e+00	1.800000e+00	8.105751e-09	
28	2.210000e-03	0.000000e+00	1.620000e+00	-2.93956e-07	
29	2.230000e-03	0.000000e+00	1.260000e+00	-3.87013e-07	
30	2.270000e-03	0.000000e+00	5.400000e-01	1.735605e+00	
31	2.300000e-03	0.000000e+00	0.000000e+00	1.800022e+00	
32	2.304280e-03	0.000000e+00	0.000000e+00	1.800000e+00	
33	2.312841e-03	0.000000e+00	0.000000e+00	1.800000e+00	
34	2.329963e-03	0.000000e+00	0.000000e+00	1.800000e+00	
35	2.364205e-03	0.000000e+00	0.000000e+00	1.800000e+00	
36	2.432691e-03	0.000000e+00	0.000000e+00	1.800000e+00	
37	2.569663e-03	0.000000e+00	0.000000e+00	1.800000e+00	
38	2.843606e-03	0.000000e+00	0.000000e+00	1.800000e+00	
39	3.143606e-03	0.000000e+00	0.000000e+00	1.800000e+00	
40	3.443606e-03	0.000000e+00	0.000000e+00	1.800000e+00	
41	3.743606e-03	0.000000e+00	0.000000e+00	1.800000e+00	
42	4.043606e-03	0.000000e+00	0.000000e+00	1.800000e+00	
43	4.100000e-03	0.000000e+00	0.000000e+00	1.800000e+00	
44	4.107638e-03	0.000000e+00	1.374799e-01	1.800001e+00	
45	4.122913e-03	0.000000e+00	4.124396e-01	1.797369e+00	
46	4.153464e-03	0.000000e+00	9.623591e-01	5.185812e-05	
47	4.180258e-03	0.000000e+00	1.444648e+00	-6.33057e-06	
48	4.200000e-03	0.000000e+00	1.800000e+00	5.624845e-06	
49	4.202593e-03	0.000000e+00	1.800000e+00	8.258404e-09	
50	4.207778e-03	0.000000e+00	1.800000e+00	1.017329e-08	
51	4.218148e-03	0.000000e+00	1.800000e+00	8.242305e-09	
52	4.238889e-03	0.000000e+00	1.800000e+00	1.020205e-08	
53	4.280371e-03	0.000000e+00	1.800000e+00	8.242323e-09	
54	4.363334e-03	0.000000e+00	1.800000e+00	1.020204e-08	

Index   time                            clk             clkb            
--------------------------------------------------------------------------------
55	4.529261e-03	0.000000e+00	1.800000e+00	8.242327e-09	
56	4.829261e-03	0.000000e+00	1.800000e+00	1.020204e-08	
57	5.129261e-03	0.000000e+00	1.800000e+00	8.242329e-09	
58	5.429261e-03	0.000000e+00	1.800000e+00	1.020204e-08	
59	5.729261e-03	0.000000e+00	1.800000e+00	8.242331e-09	
60	6.029261e-03	0.000000e+00	1.800000e+00	1.020203e-08	
61	6.200000e-03	0.000000e+00	1.800000e+00	8.242333e-09	
62	6.210000e-03	0.000000e+00	1.620000e+00	-2.93956e-07	
63	6.230000e-03	0.000000e+00	1.260000e+00	-3.87013e-07	
64	6.270000e-03	0.000000e+00	5.400000e-01	1.735605e+00	
65	6.300000e-03	0.000000e+00	0.000000e+00	1.800022e+00	
66	6.304280e-03	0.000000e+00	0.000000e+00	1.800000e+00	
67	6.312841e-03	0.000000e+00	0.000000e+00	1.800000e+00	
68	6.329963e-03	0.000000e+00	0.000000e+00	1.800000e+00	
69	6.364205e-03	0.000000e+00	0.000000e+00	1.800000e+00	
70	6.432691e-03	0.000000e+00	0.000000e+00	1.800000e+00	
71	6.569663e-03	0.000000e+00	0.000000e+00	1.800000e+00	
72	6.843606e-03	0.000000e+00	0.000000e+00	1.800000e+00	
73	7.143606e-03	0.000000e+00	0.000000e+00	1.800000e+00	
74	7.443606e-03	0.000000e+00	0.000000e+00	1.800000e+00	
75	7.743606e-03	0.000000e+00	0.000000e+00	1.800000e+00	
76	8.043606e-03	0.000000e+00	0.000000e+00	1.800000e+00	
77	8.100000e-03	0.000000e+00	0.000000e+00	1.800000e+00	
78	8.107638e-03	0.000000e+00	1.374799e-01	1.800001e+00	
79	8.122913e-03	0.000000e+00	4.124396e-01	1.797369e+00	
80	8.153464e-03	0.000000e+00	9.623591e-01	5.185812e-05	
81	8.180258e-03	0.000000e+00	1.444648e+00	-6.33057e-06	
82	8.200000e-03	0.000000e+00	1.800000e+00	5.624845e-06	
83	8.202593e-03	0.000000e+00	1.800000e+00	8.258404e-09	
84	8.207778e-03	0.000000e+00	1.800000e+00	1.017329e-08	
85	8.218148e-03	0.000000e+00	1.800000e+00	8.242305e-09	
86	8.238889e-03	0.000000e+00	1.800000e+00	1.020205e-08	
87	8.280371e-03	0.000000e+00	1.800000e+00	8.242323e-09	
88	8.363334e-03	0.000000e+00	1.800000e+00	1.020204e-08	
89	8.529261e-03	0.000000e+00	1.800000e+00	8.242327e-09	
90	8.829261e-03	0.000000e+00	1.800000e+00	1.020204e-08	
91	9.129261e-03	0.000000e+00	1.800000e+00	8.242329e-09	
92	9.429261e-03	0.000000e+00	1.800000e+00	1.020204e-08	
93	9.729261e-03	0.000000e+00	1.800000e+00	8.242331e-09	
94	1.002926e-02	0.000000e+00	1.800000e+00	1.020204e-08	
95	1.020000e-02	0.000000e+00	1.800000e+00	8.242333e-09	
96	1.021000e-02	0.000000e+00	1.620000e+00	-2.93956e-07	
97	1.023000e-02	0.000000e+00	1.260000e+00	-3.87013e-07	
98	1.027000e-02	0.000000e+00	5.400000e-01	1.735605e+00	
99	1.030000e-02	0.000000e+00	1.865175e-14	1.800022e+00	
100	1.030428e-02	0.000000e+00	0.000000e+00	1.800000e+00	
101	1.031284e-02	0.000000e+00	0.000000e+00	1.800000e+00	
102	1.032996e-02	0.000000e+00	0.000000e+00	1.800000e+00	
103	1.036421e-02	0.000000e+00	0.000000e+00	1.800000e+00	
104	1.043269e-02	0.000000e+00	0.000000e+00	1.800000e+00	
105	1.056966e-02	0.000000e+00	0.000000e+00	1.800000e+00	
106	1.084361e-02	0.000000e+00	0.000000e+00	1.800000e+00	
107	1.114361e-02	0.000000e+00	0.000000e+00	1.800000e+00	
108	1.144361e-02	0.000000e+00	0.000000e+00	1.800000e+00	
109	1.174361e-02	0.000000e+00	0.000000e+00	1.800000e+00	
110	1.204361e-02	0.000000e+00	0.000000e+00	1.800000e+00	
111	1.210000e-02	0.000000e+00	0.000000e+00	1.800000e+00	
112	1.210764e-02	0.000000e+00	1.374799e-01	1.800001e+00	

Index   time                            clk             clkb            
--------------------------------------------------------------------------------
113	1.212291e-02	0.000000e+00	4.124396e-01	1.797369e+00	
114	1.215346e-02	0.000000e+00	9.623591e-01	5.185812e-05	
115	1.218026e-02	0.000000e+00	1.444648e+00	-6.33057e-06	
116	1.220000e-02	0.000000e+00	1.800000e+00	5.624845e-06	
117	1.220259e-02	0.000000e+00	1.800000e+00	8.258404e-09	
118	1.220778e-02	0.000000e+00	1.800000e+00	1.017329e-08	
119	1.221815e-02	0.000000e+00	1.800000e+00	8.242305e-09	
120	1.223889e-02	0.000000e+00	1.800000e+00	1.020205e-08	
121	1.228037e-02	0.000000e+00	1.800000e+00	8.242323e-09	
122	1.236333e-02	0.000000e+00	1.800000e+00	1.020204e-08	
123	1.252926e-02	0.000000e+00	1.800000e+00	8.242327e-09	
124	1.282926e-02	0.000000e+00	1.800000e+00	1.020204e-08	
125	1.312926e-02	0.000000e+00	1.800000e+00	8.242329e-09	
126	1.342926e-02	0.000000e+00	1.800000e+00	1.020204e-08	
127	1.372926e-02	0.000000e+00	1.800000e+00	8.242331e-09	
128	1.402926e-02	0.000000e+00	1.800000e+00	1.020204e-08	
129	1.420000e-02	0.000000e+00	1.800000e+00	8.242333e-09	
130	1.421000e-02	0.000000e+00	1.620000e+00	-2.93956e-07	
131	1.423000e-02	0.000000e+00	1.260000e+00	-3.87013e-07	
132	1.427000e-02	0.000000e+00	5.400000e-01	1.735605e+00	
133	1.430000e-02	0.000000e+00	1.865175e-14	1.800022e+00	
134	1.430428e-02	0.000000e+00	0.000000e+00	1.800000e+00	
135	1.431284e-02	0.000000e+00	0.000000e+00	1.800000e+00	
136	1.432996e-02	0.000000e+00	0.000000e+00	1.800000e+00	
137	1.436421e-02	0.000000e+00	0.000000e+00	1.800000e+00	
138	1.443269e-02	0.000000e+00	0.000000e+00	1.800000e+00	
139	1.456966e-02	0.000000e+00	0.000000e+00	1.800000e+00	
140	1.484361e-02	0.000000e+00	0.000000e+00	1.800000e+00	
141	1.500000e-02	0.000000e+00	0.000000e+00	1.800000e+00	

                 * /home/kanish/sky130pdk-based-mux/mux/mux.cir
                 Transient Analysis  Sat Oct 22 05:14:04  2022
--------------------------------------------------------------------------------
Index   time            m.xsc1.msky130_ m.xsc1.msky130_ m.xsc1.msky130_ 
--------------------------------------------------------------------------------
0	0.000000e+00	1.800000e+00	1.800000e+00	1.800000e+00	
1	1.000000e-06	1.800000e+00	1.800000e+00	1.800000e+00	
2	2.000000e-06	1.800000e+00	1.800000e+00	1.800000e+00	
3	4.000000e-06	1.800000e+00	1.800000e+00	1.800000e+00	
4	8.000000e-06	1.800000e+00	1.800000e+00	1.800000e+00	
5	1.600000e-05	1.800000e+00	1.800000e+00	1.800000e+00	
6	3.200000e-05	1.800000e+00	1.800000e+00	1.800000e+00	
7	6.400000e-05	1.800000e+00	1.800000e+00	1.800000e+00	
8	1.000000e-04	1.800000e+00	1.800000e+00	1.800000e+00	
9	1.064000e-04	1.800000e+00	1.800000e+00	1.800000e+00	
10	1.192000e-04	1.800000e+00	1.800000e+00	1.800000e+00	
11	1.448000e-04	1.800000e+00	1.800000e+00	1.800000e+00	
12	1.659114e-04	1.800000e+00	1.800000e+00	1.800000e+00	
13	1.862869e-04	1.800000e+00	1.800000e+00	1.800000e+00	
14	2.000000e-04	1.800000e+00	1.800000e+00	1.800000e+00	
15	2.032145e-04	1.800000e+00	1.800000e+00	1.800000e+00	
16	2.096434e-04	1.800000e+00	1.800000e+00	1.800000e+00	
17	2.225013e-04	1.800000e+00	1.800000e+00	1.800000e+00	
18	2.482171e-04	1.800000e+00	1.800000e+00	1.800000e+00	
19	2.996486e-04	1.800000e+00	1.800000e+00	1.800000e+00	
20	4.025118e-04	1.800000e+00	1.800000e+00	1.800000e+00	
21	6.082380e-04	1.800000e+00	1.800000e+00	1.800000e+00	
22	9.082380e-04	1.800000e+00	1.800000e+00	1.800000e+00	
23	1.208238e-03	1.800000e+00	1.800000e+00	1.800000e+00	
24	1.508238e-03	1.800000e+00	1.800000e+00	1.800000e+00	
25	1.808238e-03	1.800000e+00	1.800000e+00	1.800000e+00	
26	2.108238e-03	1.800000e+00	1.800000e+00	1.800000e+00	
27	2.200000e-03	1.800000e+00	1.800000e+00	1.800000e+00	
28	2.210000e-03	1.800000e+00	1.800000e+00	1.800000e+00	
29	2.230000e-03	1.800000e+00	1.800000e+00	1.800000e+00	
30	2.270000e-03	1.800000e+00	1.800000e+00	1.800000e+00	
31	2.300000e-03	1.800000e+00	1.800000e+00	1.800000e+00	
32	2.304280e-03	1.800000e+00	1.800000e+00	1.800000e+00	
33	2.312841e-03	1.800000e+00	1.800000e+00	1.800000e+00	
34	2.329963e-03	1.800000e+00	1.800000e+00	1.800000e+00	
35	2.364205e-03	1.800000e+00	1.800000e+00	1.800000e+00	
36	2.432691e-03	1.800000e+00	1.800000e+00	1.800000e+00	
37	2.569663e-03	1.800000e+00	1.800000e+00	1.800000e+00	
38	2.843606e-03	1.800000e+00	1.800000e+00	1.800000e+00	
39	3.143606e-03	1.800000e+00	1.800000e+00	1.800000e+00	
40	3.443606e-03	1.800000e+00	1.800000e+00	1.800000e+00	
41	3.743606e-03	1.800000e+00	1.800000e+00	1.800000e+00	
42	4.043606e-03	1.800000e+00	1.800000e+00	1.800000e+00	
43	4.100000e-03	1.800000e+00	1.800000e+00	1.800000e+00	
44	4.107638e-03	1.800000e+00	1.800000e+00	1.800000e+00	
45	4.122913e-03	1.800000e+00	1.800000e+00	1.800000e+00	
46	4.153464e-03	1.800000e+00	1.800000e+00	1.800000e+00	
47	4.180258e-03	1.800000e+00	1.800000e+00	1.800000e+00	
48	4.200000e-03	1.800000e+00	1.800000e+00	1.800000e+00	
49	4.202593e-03	1.800000e+00	1.800000e+00	1.800000e+00	
50	4.207778e-03	1.800000e+00	1.800000e+00	1.800000e+00	
51	4.218148e-03	1.800000e+00	1.800000e+00	1.800000e+00	
52	4.238889e-03	1.800000e+00	1.800000e+00	1.800000e+00	
53	4.280371e-03	1.800000e+00	1.800000e+00	1.800000e+00	
54	4.363334e-03	1.800000e+00	1.800000e+00	1.800000e+00	

Index   time            m.xsc1.msky130_ m.xsc1.msky130_ m.xsc1.msky130_ 
--------------------------------------------------------------------------------
55	4.529261e-03	1.800000e+00	1.800000e+00	1.800000e+00	
56	4.829261e-03	1.800000e+00	1.800000e+00	1.800000e+00	
57	5.129261e-03	1.800000e+00	1.800000e+00	1.800000e+00	
58	5.429261e-03	1.800000e+00	1.800000e+00	1.800000e+00	
59	5.729261e-03	1.800000e+00	1.800000e+00	1.800000e+00	
60	6.029261e-03	1.800000e+00	1.800000e+00	1.800000e+00	
61	6.200000e-03	1.800000e+00	1.800000e+00	1.800000e+00	
62	6.210000e-03	1.800000e+00	1.800000e+00	1.800000e+00	
63	6.230000e-03	1.800000e+00	1.800000e+00	1.800000e+00	
64	6.270000e-03	1.800000e+00	1.800000e+00	1.800000e+00	
65	6.300000e-03	1.800000e+00	1.800000e+00	1.800000e+00	
66	6.304280e-03	1.800000e+00	1.800000e+00	1.800000e+00	
67	6.312841e-03	1.800000e+00	1.800000e+00	1.800000e+00	
68	6.329963e-03	1.800000e+00	1.800000e+00	1.800000e+00	
69	6.364205e-03	1.800000e+00	1.800000e+00	1.800000e+00	
70	6.432691e-03	1.800000e+00	1.800000e+00	1.800000e+00	
71	6.569663e-03	1.800000e+00	1.800000e+00	1.800000e+00	
72	6.843606e-03	1.800000e+00	1.800000e+00	1.800000e+00	
73	7.143606e-03	1.800000e+00	1.800000e+00	1.800000e+00	
74	7.443606e-03	1.800000e+00	1.800000e+00	1.800000e+00	
75	7.743606e-03	1.800000e+00	1.800000e+00	1.800000e+00	
76	8.043606e-03	1.800000e+00	1.800000e+00	1.800000e+00	
77	8.100000e-03	1.800000e+00	1.800000e+00	1.800000e+00	
78	8.107638e-03	1.800000e+00	1.800000e+00	1.800000e+00	
79	8.122913e-03	1.800000e+00	1.800000e+00	1.800000e+00	
80	8.153464e-03	1.800000e+00	1.800000e+00	1.800000e+00	
81	8.180258e-03	1.800000e+00	1.800000e+00	1.800000e+00	
82	8.200000e-03	1.800000e+00	1.800000e+00	1.800000e+00	
83	8.202593e-03	1.800000e+00	1.800000e+00	1.800000e+00	
84	8.207778e-03	1.800000e+00	1.800000e+00	1.800000e+00	
85	8.218148e-03	1.800000e+00	1.800000e+00	1.800000e+00	
86	8.238889e-03	1.800000e+00	1.800000e+00	1.800000e+00	
87	8.280371e-03	1.800000e+00	1.800000e+00	1.800000e+00	
88	8.363334e-03	1.800000e+00	1.800000e+00	1.800000e+00	
89	8.529261e-03	1.800000e+00	1.800000e+00	1.800000e+00	
90	8.829261e-03	1.800000e+00	1.800000e+00	1.800000e+00	
91	9.129261e-03	1.800000e+00	1.800000e+00	1.800000e+00	
92	9.429261e-03	1.800000e+00	1.800000e+00	1.800000e+00	
93	9.729261e-03	1.800000e+00	1.800000e+00	1.800000e+00	
94	1.002926e-02	1.800000e+00	1.800000e+00	1.800000e+00	
95	1.020000e-02	1.800000e+00	1.800000e+00	1.800000e+00	
96	1.021000e-02	1.800000e+00	1.800000e+00	1.800000e+00	
97	1.023000e-02	1.800000e+00	1.800000e+00	1.800000e+00	
98	1.027000e-02	1.800000e+00	1.800000e+00	1.800000e+00	
99	1.030000e-02	1.800000e+00	1.800000e+00	1.800000e+00	
100	1.030428e-02	1.800000e+00	1.800000e+00	1.800000e+00	
101	1.031284e-02	1.800000e+00	1.800000e+00	1.800000e+00	
102	1.032996e-02	1.800000e+00	1.800000e+00	1.800000e+00	
103	1.036421e-02	1.800000e+00	1.800000e+00	1.800000e+00	
104	1.043269e-02	1.800000e+00	1.800000e+00	1.800000e+00	
105	1.056966e-02	1.800000e+00	1.800000e+00	1.800000e+00	
106	1.084361e-02	1.800000e+00	1.800000e+00	1.800000e+00	
107	1.114361e-02	1.800000e+00	1.800000e+00	1.800000e+00	
108	1.144361e-02	1.800000e+00	1.800000e+00	1.800000e+00	
109	1.174361e-02	1.800000e+00	1.800000e+00	1.800000e+00	
110	1.204361e-02	1.800000e+00	1.800000e+00	1.800000e+00	
111	1.210000e-02	1.800000e+00	1.800000e+00	1.800000e+00	
112	1.210764e-02	1.800000e+00	1.800000e+00	1.800000e+00	

Index   time            m.xsc1.msky130_ m.xsc1.msky130_ m.xsc1.msky130_ 
--------------------------------------------------------------------------------
113	1.212291e-02	1.800000e+00	1.800000e+00	1.800000e+00	
114	1.215346e-02	1.800000e+00	1.800000e+00	1.800000e+00	
115	1.218026e-02	1.800000e+00	1.800000e+00	1.800000e+00	
116	1.220000e-02	1.800000e+00	1.800000e+00	1.800000e+00	
117	1.220259e-02	1.800000e+00	1.800000e+00	1.800000e+00	
118	1.220778e-02	1.800000e+00	1.800000e+00	1.800000e+00	
119	1.221815e-02	1.800000e+00	1.800000e+00	1.800000e+00	
120	1.223889e-02	1.800000e+00	1.800000e+00	1.800000e+00	
121	1.228037e-02	1.800000e+00	1.800000e+00	1.800000e+00	
122	1.236333e-02	1.800000e+00	1.800000e+00	1.800000e+00	
123	1.252926e-02	1.800000e+00	1.800000e+00	1.800000e+00	
124	1.282926e-02	1.800000e+00	1.800000e+00	1.800000e+00	
125	1.312926e-02	1.800000e+00	1.800000e+00	1.800000e+00	
126	1.342926e-02	1.800000e+00	1.800000e+00	1.800000e+00	
127	1.372926e-02	1.800000e+00	1.800000e+00	1.800000e+00	
128	1.402926e-02	1.800000e+00	1.800000e+00	1.800000e+00	
129	1.420000e-02	1.800000e+00	1.800000e+00	1.800000e+00	
130	1.421000e-02	1.800000e+00	1.800000e+00	1.800000e+00	
131	1.423000e-02	1.800000e+00	1.800000e+00	1.800000e+00	
132	1.427000e-02	1.800000e+00	1.800000e+00	1.800000e+00	
133	1.430000e-02	1.800000e+00	1.800000e+00	1.800000e+00	
134	1.430428e-02	1.800000e+00	1.800000e+00	1.800000e+00	
135	1.431284e-02	1.800000e+00	1.800000e+00	1.800000e+00	
136	1.432996e-02	1.800000e+00	1.800000e+00	1.800000e+00	
137	1.436421e-02	1.800000e+00	1.800000e+00	1.800000e+00	
138	1.443269e-02	1.800000e+00	1.800000e+00	1.800000e+00	
139	1.456966e-02	1.800000e+00	1.800000e+00	1.800000e+00	
140	1.484361e-02	1.800000e+00	1.800000e+00	1.800000e+00	
141	1.500000e-02	1.800000e+00	1.800000e+00	1.800000e+00	

                 * /home/kanish/sky130pdk-based-mux/mux/mux.cir
                 Transient Analysis  Sat Oct 22 05:14:04  2022
--------------------------------------------------------------------------------
Index   time            m.xsc2.msky130_ m.xsc2.msky130_ m.xsc2.msky130_ 
--------------------------------------------------------------------------------
0	0.000000e+00	2.263382e-11	5.656691e-11	1.131691e-11	
1	1.000000e-06	2.263382e-11	5.656691e-11	1.131691e-11	
2	2.000000e-06	2.263382e-11	5.656691e-11	1.131691e-11	
3	4.000000e-06	2.263382e-11	5.656691e-11	1.131691e-11	
4	8.000000e-06	2.263382e-11	5.656691e-11	1.131691e-11	
5	1.600000e-05	2.263382e-11	5.656691e-11	1.131691e-11	
6	3.200000e-05	2.263382e-11	5.656691e-11	1.131691e-11	
7	6.400000e-05	2.263382e-11	5.656691e-11	1.131691e-11	
8	1.000000e-04	2.263382e-11	5.656691e-11	1.131691e-11	
9	1.064000e-04	7.016459e-10	3.960733e-10	3.508229e-10	
10	1.192000e-04	6.603246e-10	3.752967e-10	3.301623e-10	
11	1.448000e-04	-5.20775e-10	-6.12748e-10	-2.60387e-10	
12	1.659114e-04	5.452235e-10	6.245553e-10	2.726118e-10	
13	1.862869e-04	-5.30900e-10	-6.17387e-10	-2.65450e-10	
14	2.000000e-04	5.413283e-10	6.225927e-10	2.706641e-10	
15	2.032145e-04	-1.77245e-14	-2.24467e-15	-8.86196e-15	
16	2.096434e-04	1.760342e-14	2.185732e-15	8.801417e-15	
17	2.225013e-04	-1.76203e-14	-2.19488e-15	-8.80985e-15	
18	2.482171e-04	1.762976e-14	2.200955e-15	8.814587e-15	
19	2.996486e-04	-1.76340e-14	-2.20287e-15	-8.81673e-15	
20	4.025118e-04	1.763664e-14	2.204949e-15	8.818027e-15	
21	6.082380e-04	-1.76375e-14	-2.20487e-15	-8.81845e-15	
22	9.082380e-04	1.763858e-14	2.206072e-15	8.818994e-15	
23	1.208238e-03	-1.76391e-14	-2.20578e-15	-8.81924e-15	
24	1.508238e-03	1.764015e-14	2.206985e-15	8.819780e-15	
25	1.808238e-03	-1.76406e-14	-2.20669e-15	-8.82002e-15	
26	2.108238e-03	1.764172e-14	2.207898e-15	8.820567e-15	
27	2.200000e-03	-1.76440e-14	-2.20864e-15	-8.82170e-15	
28	2.210000e-03	-5.11493e-12	-2.55758e-12	-2.55747e-12	
29	2.230000e-03	-8.08793e-12	-4.04390e-12	-4.04396e-12	
30	2.270000e-03	6.644341e-09	3.586306e-09	3.322170e-09	
31	2.300000e-03	-1.33893e-09	-8.37539e-10	-6.69464e-10	
32	2.304280e-03	2.262976e-11	5.655677e-11	1.131488e-11	
33	2.312841e-03	2.263782e-11	5.657688e-11	1.131891e-11	
34	2.329963e-03	2.262983e-11	5.655695e-11	1.131491e-11	
35	2.364205e-03	2.263782e-11	5.657687e-11	1.131891e-11	
36	2.432691e-03	2.262983e-11	5.655695e-11	1.131491e-11	
37	2.569663e-03	2.263782e-11	5.657687e-11	1.131891e-11	
38	2.843606e-03	2.262983e-11	5.655695e-11	1.131491e-11	
39	3.143606e-03	2.263782e-11	5.657687e-11	1.131891e-11	
40	3.443606e-03	2.262983e-11	5.655695e-11	1.131491e-11	
